T3F68 000:011.705   SEGGER J-Link V8.56 Log File
T3F68 000:011.867   DLL Compiled: Jul 30 2025 11:58:21
T3F68 000:011.873   Logging started @ 2026-05-19 07:55
T3F68 000:011.877   Process: E:\Keil_v5\UV4\UV4.exe
T3F68 000:011.891 - 11.881ms 
T3F68 000:011.903 JLINK_SetWarnOutHandler(...)
T3F68 000:011.908 - 0.008ms 
T3F68 000:011.915 JLINK_OpenEx(...)
T3F68 000:018.141   Firmware: J-Link V12 compiled Jul 21 2025 13:15:53
T3F68 000:019.717   Firmware: J-Link V12 compiled Jul 21 2025 13:15:53
T3F68 000:039.494   Hardware: V12.00
T3F68 000:039.517   S/N: 601012352
T3F68 000:039.525   OEM: SEGGER
T3F68 000:039.533   Feature(s): GDB, JFlash, FlashDL, FLashBP, RDI
T3F68 000:040.353   Bootloader: (FW returned invalid version)
T3F68 000:040.977   USB speed mode: High speed (480 MBit/s)
T3F68 000:041.312   TELNET listener socket opened on port 19021
T3F68 000:041.580   WEBSRV WEBSRV_Init(): Starting webserver thread(s)
T3F68 000:041.706   WEBSRV Webserver running on local port 19080
T3F68 000:041.921   Looking for J-Link GUI Server exe at: E:\Keil_v5\ARM\Segger\JLinkGUIServer.exe
T3F68 000:042.070   Looking for J-Link GUI Server exe at: D:\software\SEGGER\JLink_V856\JLinkGUIServer.exe
T3F68 000:042.159   Forking J-Link GUI Server: D:\software\SEGGER\JLink_V856\JLinkGUIServer.exe
T3F68 000:619.690   Failed to connect to J-Link GUI Server.
T3F68 000:619.743 - 607.808ms returns "O.K."
T3F68 000:619.771 JLINK_GetEmuCaps()
T3F68 000:619.784 - 0.009ms returns 0xB9FF7BBF
T3F68 000:619.801 JLINK_TIF_GetAvailable(...)
T3F68 000:620.097 - 0.300ms 
T3F68 000:620.137 JLINK_SetErrorOutHandler(...)
T3F68 000:620.146 - 0.009ms 
T3F68 000:620.221 JLINK_ExecCommand("ProjectFile = "D:\DOWNLOAD\DFDI_V9_0\MDK-ARM\JLinkSettings.ini"", ...). 
T3F68 000:645.386   Ref file found at: E:\Keil_v5\ARM\Segger\JLinkDevices.ref
T3F68 000:645.566   REF file references invalid XML file: D:\software\SEGGER\JLink_V856\JLinkDevices.xml
T3F68 000:649.432   Device "CORTEX-M3" selected.
T3F68 000:650.030 - 29.814ms returns 0x00
T3F68 000:651.063 JLINK_ExecCommand("Device = AC78406HGLA", ...). 
T3F68 000:652.227   Device "CORTEX-M3" selected.
T3F68 000:652.763 - 1.687ms returns 0x00
T3F68 000:652.776 JLINK_ExecCommand("DisableConnectionTimeout", ...). 
T3F68 000:652.793   ERROR: Unknown command
T3F68 000:652.800 - 0.017ms returns 0x01
T3F68 000:652.807 JLINK_GetHardwareVersion()
T3F68 000:652.812 - 0.004ms returns 120000
T3F68 000:652.817 JLINK_GetDLLVersion()
T3F68 000:652.822 - 0.004ms returns 85600
T3F68 000:652.828 JLINK_GetOEMString(...)
T3F68 000:652.833 JLINK_GetFirmwareString(...)
T3F68 000:652.838 - 0.004ms 
T3F68 000:658.991 JLINK_GetDLLVersion()
T3F68 000:659.008 - 0.017ms returns 85600
T3F68 000:659.014 JLINK_GetCompileDateTime()
T3F68 000:659.019 - 0.004ms 
T3F68 000:661.622 JLINK_GetFirmwareString(...)
T3F68 000:661.637 - 0.014ms 
T3F68 000:666.374 JLINK_GetHardwareVersion()
T3F68 000:666.400 - 0.025ms returns 120000
T3F68 000:669.630 JLINK_GetSN()
T3F68 000:669.653 - 0.022ms returns 601012352
T3F68 000:672.489 JLINK_GetOEMString(...)
T3F68 000:678.000 JLINK_TIF_Select(JLINKARM_TIF_SWD)
T3F68 000:679.245 - 1.260ms returns 0x00
T3F68 000:679.271 JLINK_HasError()
T3F68 000:679.285 JLINK_SetSpeed(5000)
T3F68 000:679.504 - 0.219ms 
T3F68 000:679.520 JLINK_GetId()
T3F68 000:683.492   Found SW-DP with ID 0x2BA01477
T3F68 000:689.129   DPIDR: 0x2BA01477
T3F68 000:693.847   CoreSight SoC-400 or earlier
T3F68 000:696.987   Scanning AP map to find all available APs
T3F68 000:701.125   AP[1]: Stopped AP scan as end of AP map has been reached
T3F68 000:704.040   AP[0]: AHB-AP (IDR: 0x24770011, ADDR: 0x00000000)
T3F68 000:706.816   Iterating through AP map to find AHB-AP to use
T3F68 000:710.313   AP[0]: Core found
T3F68 000:713.434   AP[0]: AHB-AP ROM base: 0xE00FF000
T3F68 000:717.650   CPUID register: 0x410FC241. Implementer code: 0x41 (ARM)
T3F68 000:721.428   Found Cortex-M4 r0p1, Little endian.
T3F68 000:724.328   
  ***** Warning: 
T3F68 000:724.350   Identified core does not match configuration. (Found: Cortex-M4, Configured: Cortex-M3)
T3F68 000:724.910   -- Max. mem block: 0x00003FA8
T3F68 000:729.952   Cortex-M: The connected J-Link (S/N 601012352) uses an old firmware module: V1 (current is 3)
T3F68 000:730.005   CPU_ReadMem(4 bytes @ 0xE000EDF0)
T3F68 000:730.271   CPU_WriteMem(4 bytes @ 0xE000EDF0)
T3F68 000:730.603   CPU_ReadMem(4 bytes @ 0xE0002000)
T3F68 000:735.147   FPUnit: 6 code (BP) slots and 2 literal slots
T3F68 000:735.176   CPU_ReadMem(4 bytes @ 0xE000EDFC)
T3F68 000:735.627   CPU_WriteMem(4 bytes @ 0xE000EDFC)
T3F68 000:736.022   CPU_ReadMem(4 bytes @ 0xE0001000)
T3F68 000:736.432   CPU_WriteMem(4 bytes @ 0xE0001000)
T3F68 000:736.845   CPU_ReadMem(4 bytes @ 0xE000ED88)
T3F68 000:737.196   CPU_WriteMem(4 bytes @ 0xE000ED88)
T3F68 000:737.579   CPU_ReadMem(4 bytes @ 0xE000ED88)
T3F68 000:737.905   CPU_WriteMem(4 bytes @ 0xE000ED88)
T3F68 000:741.308   CoreSight components:
T3F68 000:744.126   ROMTbl[0] @ E00FF000
T3F68 000:744.148   CPU_ReadMem(64 bytes @ 0xE00FF000)
T3F68 000:744.803   CPU_ReadMem(32 bytes @ 0xE000EFE0)
T3F68 000:748.297   [0][0]: E000E000 CID B105E00D PID 000BB00C SCS-M7
T3F68 000:748.315   CPU_ReadMem(32 bytes @ 0xE0001FE0)
T3F68 000:751.547   [0][1]: E0001000 CID B105E00D PID 003BB002 DWT
T3F68 000:751.569   CPU_ReadMem(32 bytes @ 0xE0002FE0)
T3F68 000:756.421   [0][2]: E0002000 CID B105E00D PID 002BB003 FPB
T3F68 000:756.448   CPU_ReadMem(32 bytes @ 0xE0000FE0)
T3F68 000:761.822   [0][3]: E0000000 CID B105E00D PID 003BB001 ITM
T3F68 000:761.857   CPU_ReadMem(32 bytes @ 0xE0040FE0)
T3F68 000:765.708   [0][4]: E0040000 CID B105900D PID 000BB9A1 TPIU
T3F68 000:765.990 - 86.468ms returns 0x2BA01477
T3F68 000:766.019 JLINK_GetDLLVersion()
T3F68 000:766.024 - 0.004ms returns 85600
T3F68 000:766.030 JLINK_CORE_GetFound()
T3F68 000:766.035 - 0.004ms returns 0xE0000FF
T3F68 000:766.041 JLINK_GetDebugInfo(0x100 = JLINKARM_ROM_TABLE_ADDR_INDEX)
T3F68 000:766.051   Value=0xE00FF000
T3F68 000:766.058 - 0.017ms returns 0
T3F68 000:769.374 JLINK_GetDebugInfo(0x100 = JLINKARM_ROM_TABLE_ADDR_INDEX)
T3F68 000:769.395   Value=0xE00FF000
T3F68 000:769.402 - 0.028ms returns 0
T3F68 000:769.408 JLINK_GetDebugInfo(0x101 = JLINKARM_DEBUG_INFO_ETM_ADDR_INDEX)
T3F68 000:769.412   Value=0x00000000
T3F68 000:769.419 - 0.010ms returns 0
T3F68 000:769.426 JLINK_ReadMemEx(0xE0041FF0, 0x10 Bytes, Flags = 0x02000004)
T3F68 000:769.468   CPU_ReadMem(16 bytes @ 0xE0041FF0)
T3F68 000:769.804   Data:  00 00 00 00 00 00 00 00 00 00 00 00 00 00 00 00
T3F68 000:769.821 - 0.395ms returns 16 (0x10)
T3F68 000:769.832 JLINK_GetDebugInfo(0x102 = JLINKARM_DEBUG_INFO_MTB_ADDR_INDEX)
T3F68 000:769.838   Value=0x00000000
T3F68 000:769.846 - 0.014ms returns 0
T3F68 000:769.853 JLINK_GetDebugInfo(0x103 = JLINKARM_DEBUG_INFO_TPIU_ADDR_INDEX)
T3F68 000:769.859   Value=0xE0040000
T3F68 000:769.867 - 0.013ms returns 0
T3F68 000:769.874 JLINK_GetDebugInfo(0x104 = JLINKARM_DEBUG_INFO_ITM_ADDR_INDEX)
T3F68 000:769.880   Value=0xE0000000
T3F68 000:769.887 - 0.013ms returns 0
T3F68 000:769.894 JLINK_GetDebugInfo(0x105 = JLINKARM_DEBUG_INFO_DWT_ADDR_INDEX)
T3F68 000:769.900   Value=0xE0001000
T3F68 000:769.909 - 0.014ms returns 0
T3F68 000:769.915 JLINK_GetDebugInfo(0x106 = JLINKARM_DEBUG_INFO_FPB_ADDR_INDEX)
T3F68 000:769.921   Value=0xE0002000
T3F68 000:769.929 - 0.013ms returns 0
T3F68 000:769.936 JLINK_GetDebugInfo(0x107 = JLINKARM_DEBUG_INFO_NVIC_ADDR_INDEX)
T3F68 000:769.942   Value=0xE000E000
T3F68 000:769.950 - 0.013ms returns 0
T3F68 000:769.957 JLINK_GetDebugInfo(0x10C = JLINKARM_DEBUG_INFO_DBG_ADDR_INDEX)
T3F68 000:769.962   Value=0xE000EDF0
T3F68 000:769.970 - 0.013ms returns 0
T3F68 000:769.977 JLINK_ReadMemU32(0xE000EF40, 0x1 Items)
T3F68 000:769.988   CPU_ReadMem(4 bytes @ 0xE000EF40)
T3F68 000:770.247   Data:  21 00 11 10
T3F68 000:770.271 - 0.293ms returns 1 (0x1)
T3F68 000:770.280 JLINK_ReadMemU32(0xE000EF44, 0x1 Items)
T3F68 000:770.290   CPU_ReadMem(4 bytes @ 0xE000EF44)
T3F68 000:770.533   Data:  11 00 00 11
T3F68 000:770.540 - 0.260ms returns 1 (0x1)
T3F68 000:770.599 JLINK_ReadMemU32(0xE000ED00, 0x1 Items)
T3F68 000:770.608   CPU_ReadMem(4 bytes @ 0xE000ED00)
T3F68 000:770.849   Data:  41 C2 0F 41
T3F68 000:770.864   Debug reg: CPUID
T3F68 000:770.871 - 0.272ms returns 1 (0x1)
T3F68 000:770.878 JLINK_GetDebugInfo(0x10F = JLINKARM_DEBUG_INFO_HAS_CORTEX_M_SECURITY_EXT_INDEX)
T3F68 000:770.883   Value=0x00000000
T3F68 000:770.889 - 0.011ms returns 0
T3F68 000:770.896 JLINK_HasError()
T3F68 000:770.902 JLINK_SetResetType(JLINKARM_CM3_RESET_TYPE_NORMAL)
T3F68 000:770.907 - 0.005ms returns JLINKARM_CM3_RESET_TYPE_NORMAL
T3F68 000:770.914 JLINK_Reset()
T3F68 000:770.923   JLINK_GetResetTypeDesc
T3F68 000:770.927   - 0.004ms 
T3F68 000:774.522   Reset type: NORMAL (https://wiki.segger.com/J-Link_Reset_Strategies)
T3F68 000:774.557   CPU is running
T3F68 000:774.568   CPU_WriteMem(4 bytes @ 0xE000EDF0)
T3F68 000:774.838   CPU is running
T3F68 000:774.854   CPU_WriteMem(4 bytes @ 0xE000EDFC)
T3F68 000:778.625   Reset: Halt core after reset via DEMCR.VC_CORERESET.
T3F68 000:782.881   Reset: Reset device via AIRCR.SYSRESETREQ.
T3F68 000:782.906   CPU is running
T3F68 000:782.917   CPU_WriteMem(4 bytes @ 0xE000ED0C)
T3F68 000:835.940   CPU_ReadMem(4 bytes @ 0xE000EDF0)
T3F68 000:836.326   CPU_ReadMem(4 bytes @ 0xE000EDF0)
T3F68 000:838.607   CPU_WriteMem(4 bytes @ 0xE000EDFC)
T3F68 000:844.402   CPU_ReadMem(4 bytes @ 0xE000EDF0)
T3F68 000:846.903   CPU_WriteMem(4 bytes @ 0xE0002000)
T3F68 000:847.343   CPU_ReadMem(4 bytes @ 0xE000EDFC)
T3F68 000:847.766   CPU_ReadMem(4 bytes @ 0xE0001000)
T3F68 000:848.209 - 77.294ms 
T3F68 000:848.232 JLINK_Halt()
T3F68 000:848.237 - 0.004ms returns 0x00
T3F68 000:848.244 JLINK_ReadMemU32(0xE000EDF0, 0x1 Items)
T3F68 000:848.254   CPU_ReadMem(4 bytes @ 0xE000EDF0)
T3F68 000:848.580   Data:  03 00 03 00
T3F68 000:848.616   Debug reg: DHCSR
T3F68 000:848.623 - 0.379ms returns 1 (0x1)
T3F68 000:848.634 JLINK_WriteU32(0xE000EDF0, 0xA05F0003)
T3F68 000:848.639   Debug reg: DHCSR
T3F68 000:848.953   CPU_WriteMem(4 bytes @ 0xE000EDF0)
T3F68 000:849.252 - 0.617ms returns 0 (0x00000000)
T3F68 000:849.270 JLINK_WriteU32(0xE000EDFC, 0x01000000)
T3F68 000:849.275   Debug reg: DEMCR
T3F68 000:849.287   CPU_WriteMem(4 bytes @ 0xE000EDFC)
T3F68 000:849.595 - 0.325ms returns 0 (0x00000000)
T3F68 000:861.828 JLINK_GetHWStatus(...)
T3F68 000:862.141 - 0.312ms returns 0
T3F68 000:871.444 JLINK_GetNumBPUnits(Type = 0xFFFFFF00)
T3F68 000:871.493 - 0.049ms returns 0x06
T3F68 000:871.514 JLINK_GetNumBPUnits(Type = 0xF0)
T3F68 000:871.521 - 0.006ms returns 0x2000
T3F68 000:871.526 JLINK_GetNumWPUnits()
T3F68 000:871.531 - 0.004ms returns 4
T3F68 000:880.426 JLINK_GetSpeed()
T3F68 000:880.451 - 0.024ms returns 5000
T3F68 000:886.796 JLINK_ReadMemU32(0xE000E004, 0x1 Items)
T3F68 000:886.830   CPU_ReadMem(4 bytes @ 0xE000E004)
T3F68 000:887.257   Data:  02 00 00 00
T3F68 000:887.271 - 0.476ms returns 1 (0x1)
T3F68 000:887.280 JLINK_ReadMemU32(0xE000E004, 0x1 Items)
T3F68 000:887.288   CPU_ReadMem(4 bytes @ 0xE000E004)
T3F68 000:887.662   Data:  02 00 00 00
T3F68 000:887.676 - 0.395ms returns 1 (0x1)
T3F68 000:887.687 JLINK_WriteMemEx(0xE0001000, 0x0000001C Bytes, Flags = 0x02000004)
T3F68 000:887.692   Data:  01 00 00 00 00 00 00 00 00 00 00 00 00 00 00 00 ...
T3F68 000:887.706   CPU_WriteMem(28 bytes @ 0xE0001000)
T3F68 000:888.182 - 0.494ms returns 0x1C
T3F68 000:888.213 JLINK_Halt()
T3F68 000:888.219 - 0.005ms returns 0x00
T3F68 000:888.224 JLINK_IsHalted()
T3F68 000:888.230 - 0.005ms returns TRUE
T3F68 000:893.856 JLINK_WriteMem(0x1FFF0000, 0x348 Bytes, ...)
T3F68 000:893.870   Data:  00 BE 0A E0 0D 78 2D 06 68 40 08 24 40 00 00 D3 ...
T3F68 000:894.211   CPU_WriteMem(840 bytes @ 0x1FFF0000)
T3F68 000:896.979 - 3.122ms returns 0x348
T3F68 000:897.028 JLINK_HasError()
T3F68 000:897.036 JLINK_WriteReg(R0, 0x00000000)
T3F68 000:897.043 - 0.007ms returns 0
T3F68 000:897.049 JLINK_WriteReg(R1, 0x00B71B00)
T3F68 000:897.054 - 0.004ms returns 0
T3F68 000:897.060 JLINK_WriteReg(R2, 0x00000001)
T3F68 000:897.066 - 0.007ms returns 0
T3F68 000:897.075 JLINK_WriteReg(R3, 0x00000000)
T3F68 000:897.086 - 0.011ms returns 0
T3F68 000:897.092 JLINK_WriteReg(R4, 0x00000000)
T3F68 000:897.096 - 0.004ms returns 0
T3F68 000:897.102 JLINK_WriteReg(R5, 0x00000000)
T3F68 000:897.106 - 0.004ms returns 0
T3F68 000:897.112 JLINK_WriteReg(R6, 0x00000000)
T3F68 000:897.116 - 0.004ms returns 0
T3F68 000:897.122 JLINK_WriteReg(R7, 0x00000000)
T3F68 000:897.126 - 0.004ms returns 0
T3F68 000:897.142 JLINK_WriteReg(R8, 0x00000000)
T3F68 000:897.147 - 0.015ms returns 0
T3F68 000:897.152 JLINK_WriteReg(R9, 0x1FFF0344)
T3F68 000:897.157 - 0.004ms returns 0
T3F68 000:897.162 JLINK_WriteReg(R10, 0x00000000)
T3F68 000:897.167 - 0.004ms returns 0
T3F68 000:897.172 JLINK_WriteReg(R11, 0x00000000)
T3F68 000:897.176 - 0.004ms returns 0
T3F68 000:897.182 JLINK_WriteReg(R12, 0x00000000)
T3F68 000:897.186 - 0.004ms returns 0
T3F68 000:897.192 JLINK_WriteReg(R13 (SP), 0x1FFF1000)
T3F68 000:897.197 - 0.005ms returns 0
T3F68 000:897.203 JLINK_WriteReg(R14, 0x1FFF0001)
T3F68 000:897.207 - 0.004ms returns 0
T3F68 000:897.216 JLINK_WriteReg(R15 (PC), 0x1FFF0040)
T3F68 000:897.221 - 0.008ms returns 0
T3F68 000:897.226 JLINK_WriteReg(XPSR, 0x01000000)
T3F68 000:897.231 - 0.004ms returns 0
T3F68 000:897.236 JLINK_WriteReg(MSP, 0x1FFF1000)
T3F68 000:897.241 - 0.004ms returns 0
T3F68 000:897.246 JLINK_WriteReg(PSP, 0x1FFF1000)
T3F68 000:897.251 - 0.004ms returns 0
T3F68 000:897.256 JLINK_WriteReg(CFBP, 0x00000000)
T3F68 000:897.261 - 0.004ms returns 0
T3F68 000:897.267 JLINK_SetBPEx(Addr = 0x1FFF0000, Type = 0xFFFFFFF2)
T3F68 000:897.273 - 0.006ms returns 0x00000001
T3F68 000:897.279 JLINK_Go()
T3F68 000:897.286   CPU_WriteMem(4 bytes @ 0xE0002000)
T3F68 000:897.709   CPU_ReadMem(4 bytes @ 0xE0001000)
T3F68 000:898.111   CPU_WriteMem(4 bytes @ 0xE0002008)
T3F68 000:898.127   CPU_WriteMem(4 bytes @ 0xE000200C)
T3F68 000:898.134   CPU_WriteMem(4 bytes @ 0xE0002010)
T3F68 000:898.140   CPU_WriteMem(4 bytes @ 0xE0002014)
T3F68 000:898.146   CPU_WriteMem(4 bytes @ 0xE0002018)
T3F68 000:898.152   CPU_WriteMem(4 bytes @ 0xE000201C)
T3F68 000:898.943   CPU_WriteMem(4 bytes @ 0xE0001004)
T3F68 000:904.124   Memory map 'after startup completion point' is active
T3F68 000:904.146 - 6.867ms 
T3F68 000:904.160 JLINK_IsHalted()
T3F68 000:906.100 - 1.940ms returns TRUE
T3F68 000:906.122 JLINK_ReadReg(R15 (PC))
T3F68 000:906.131 - 0.009ms returns 0x1FFF0000
T3F68 000:906.140 JLINK_ClrBPEx(BPHandle = 0x00000001)
T3F68 000:906.146 - 0.006ms returns 0x00
T3F68 000:906.155 JLINK_ReadReg(R0)
T3F68 000:906.161 - 0.006ms returns 0x00000000
T3F68 000:907.126 JLINK_HasError()
T3F68 000:907.147 JLINK_WriteReg(R0, 0x00000000)
T3F68 000:907.157 - 0.009ms returns 0
T3F68 000:907.164 JLINK_WriteReg(R1, 0x00000800)
T3F68 000:907.171 - 0.006ms returns 0
T3F68 000:907.177 JLINK_WriteReg(R2, 0x000000FF)
T3F68 000:907.183 - 0.005ms returns 0
T3F68 000:907.190 JLINK_WriteReg(R3, 0x00000000)
T3F68 000:907.195 - 0.005ms returns 0
T3F68 000:907.201 JLINK_WriteReg(R4, 0x00000000)
T3F68 000:907.205 - 0.004ms returns 0
T3F68 000:907.211 JLINK_WriteReg(R5, 0x00000000)
T3F68 000:907.215 - 0.004ms returns 0
T3F68 000:907.221 JLINK_WriteReg(R6, 0x00000000)
T3F68 000:907.226 - 0.004ms returns 0
T3F68 000:907.231 JLINK_WriteReg(R7, 0x00000000)
T3F68 000:907.236 - 0.004ms returns 0
T3F68 000:907.242 JLINK_WriteReg(R8, 0x00000000)
T3F68 000:907.246 - 0.004ms returns 0
T3F68 000:907.257 JLINK_WriteReg(R9, 0x1FFF0344)
T3F68 000:907.262 - 0.004ms returns 0
T3F68 000:907.267 JLINK_WriteReg(R10, 0x00000000)
T3F68 000:907.272 - 0.004ms returns 0
T3F68 000:907.277 JLINK_WriteReg(R11, 0x00000000)
T3F68 000:907.282 - 0.004ms returns 0
T3F68 000:907.287 JLINK_WriteReg(R12, 0x00000000)
T3F68 000:907.292 - 0.004ms returns 0
T3F68 000:907.298 JLINK_WriteReg(R13 (SP), 0x1FFF1000)
T3F68 000:907.303 - 0.005ms returns 0
T3F68 000:907.308 JLINK_WriteReg(R14, 0x1FFF0001)
T3F68 000:907.313 - 0.004ms returns 0
T3F68 000:907.319 JLINK_WriteReg(R15 (PC), 0x1FFF0090)
T3F68 000:907.326 - 0.007ms returns 0
T3F68 000:907.333 JLINK_WriteReg(XPSR, 0x01000000)
T3F68 000:907.338 - 0.004ms returns 0
T3F68 000:907.344 JLINK_WriteReg(MSP, 0x1FFF1000)
T3F68 000:907.348 - 0.004ms returns 0
T3F68 000:907.354 JLINK_WriteReg(PSP, 0x1FFF1000)
T3F68 000:907.358 - 0.004ms returns 0
T3F68 000:907.364 JLINK_WriteReg(CFBP, 0x00000000)
T3F68 000:907.368 - 0.004ms returns 0
T3F68 000:907.375 JLINK_SetBPEx(Addr = 0x1FFF0000, Type = 0xFFFFFFF2)
T3F68 000:907.383 - 0.008ms returns 0x00000002
T3F68 000:907.388 JLINK_Go()
T3F68 000:907.400   CPU_WriteMem(4 bytes @ 0xE0002000)
T3F68 000:907.929   CPU_ReadMem(4 bytes @ 0xE0001000)
T3F68 000:910.319 - 2.929ms 
T3F68 000:910.333 JLINK_IsHalted()
T3F68 000:912.307 - 1.972ms returns TRUE
T3F68 000:912.322 JLINK_ReadReg(R15 (PC))
T3F68 000:912.330 - 0.007ms returns 0x1FFF0000
T3F68 000:912.336 JLINK_ClrBPEx(BPHandle = 0x00000002)
T3F68 000:912.341 - 0.005ms returns 0x00
T3F68 000:912.347 JLINK_ReadReg(R0)
T3F68 000:912.352 - 0.004ms returns 0x00000001
T3F68 000:912.358 JLINK_HasError()
T3F68 000:912.364 JLINK_WriteReg(R0, 0x00000000)
T3F68 000:912.369 - 0.005ms returns 0
T3F68 000:912.375 JLINK_WriteReg(R1, 0x00000800)
T3F68 000:912.380 - 0.004ms returns 0
T3F68 000:912.385 JLINK_WriteReg(R2, 0x000000FF)
T3F68 000:912.390 - 0.004ms returns 0
T3F68 000:912.395 JLINK_WriteReg(R3, 0x00000000)
T3F68 000:912.399 - 0.004ms returns 0
T3F68 000:912.405 JLINK_WriteReg(R4, 0x00000000)
T3F68 000:912.409 - 0.004ms returns 0
T3F68 000:912.415 JLINK_WriteReg(R5, 0x00000000)
T3F68 000:912.419 - 0.004ms returns 0
T3F68 000:912.425 JLINK_WriteReg(R6, 0x00000000)
T3F68 000:912.429 - 0.004ms returns 0
T3F68 000:912.435 JLINK_WriteReg(R7, 0x00000000)
T3F68 000:912.439 - 0.004ms returns 0
T3F68 000:912.444 JLINK_WriteReg(R8, 0x00000000)
T3F68 000:912.449 - 0.004ms returns 0
T3F68 000:912.454 JLINK_WriteReg(R9, 0x1FFF0344)
T3F68 000:912.459 - 0.004ms returns 0
T3F68 000:912.464 JLINK_WriteReg(R10, 0x00000000)
T3F68 000:912.469 - 0.004ms returns 0
T3F68 000:912.474 JLINK_WriteReg(R11, 0x00000000)
T3F68 000:912.479 - 0.004ms returns 0
T3F68 000:912.484 JLINK_WriteReg(R12, 0x00000000)
T3F68 000:912.488 - 0.004ms returns 0
T3F68 000:912.494 JLINK_WriteReg(R13 (SP), 0x1FFF1000)
T3F68 000:912.499 - 0.004ms returns 0
T3F68 000:912.504 JLINK_WriteReg(R14, 0x1FFF0001)
T3F68 000:912.509 - 0.004ms returns 0
T3F68 000:912.514 JLINK_WriteReg(R15 (PC), 0x1FFF00C4)
T3F68 000:912.519 - 0.004ms returns 0
T3F68 000:912.524 JLINK_WriteReg(XPSR, 0x01000000)
T3F68 000:912.529 - 0.004ms returns 0
T3F68 000:912.534 JLINK_WriteReg(MSP, 0x1FFF1000)
T3F68 000:912.539 - 0.004ms returns 0
T3F68 000:912.544 JLINK_WriteReg(PSP, 0x1FFF1000)
T3F68 000:912.549 - 0.004ms returns 0
T3F68 000:912.554 JLINK_WriteReg(CFBP, 0x00000000)
T3F68 000:912.561 - 0.006ms returns 0
T3F68 000:912.567 JLINK_SetBPEx(Addr = 0x1FFF0000, Type = 0xFFFFFFF2)
T3F68 000:912.572 - 0.005ms returns 0x00000003
T3F68 000:912.578 JLINK_Go()
T3F68 000:912.585   CPU_WriteMem(4 bytes @ 0xE0002000)
T3F68 000:912.954   CPU_ReadMem(4 bytes @ 0xE0001000)
T3F68 000:915.234 - 2.655ms 
T3F68 000:915.251 JLINK_IsHalted()
T3F68 000:915.614 - 0.362ms returns FALSE
T3F68 000:915.629 JLINK_HasError()
T3F68 000:931.472 JLINK_IsHalted()
T3F68 000:933.566 - 2.093ms returns TRUE
T3F68 000:933.591 JLINK_ReadReg(R15 (PC))
T3F68 000:933.599 - 0.008ms returns 0x1FFF0000
T3F68 000:933.606 JLINK_ClrBPEx(BPHandle = 0x00000003)
T3F68 000:933.611 - 0.006ms returns 0x00
T3F68 000:933.618 JLINK_ReadReg(R0)
T3F68 000:933.622 - 0.004ms returns 0x00000000
T3F68 000:934.976 JLINK_HasError()
T3F68 000:934.995 JLINK_WriteReg(R0, 0x00000800)
T3F68 000:935.002 - 0.007ms returns 0
T3F68 000:935.008 JLINK_WriteReg(R1, 0x00000800)
T3F68 000:935.013 - 0.004ms returns 0
T3F68 000:935.018 JLINK_WriteReg(R2, 0x000000FF)
T3F68 000:935.023 - 0.004ms returns 0
T3F68 000:935.028 JLINK_WriteReg(R3, 0x00000000)
T3F68 000:935.033 - 0.004ms returns 0
T3F68 000:935.039 JLINK_WriteReg(R4, 0x00000000)
T3F68 000:935.046 - 0.007ms returns 0
T3F68 000:935.054 JLINK_WriteReg(R5, 0x00000000)
T3F68 000:935.059 - 0.004ms returns 0
T3F68 000:935.065 JLINK_WriteReg(R6, 0x00000000)
T3F68 000:935.069 - 0.004ms returns 0
T3F68 000:935.075 JLINK_WriteReg(R7, 0x00000000)
T3F68 000:935.079 - 0.004ms returns 0
T3F68 000:935.085 JLINK_WriteReg(R8, 0x00000000)
T3F68 000:935.089 - 0.004ms returns 0
T3F68 000:935.095 JLINK_WriteReg(R9, 0x1FFF0344)
T3F68 000:935.099 - 0.004ms returns 0
T3F68 000:935.105 JLINK_WriteReg(R10, 0x00000000)
T3F68 000:935.109 - 0.004ms returns 0
T3F68 000:935.115 JLINK_WriteReg(R11, 0x00000000)
T3F68 000:935.119 - 0.004ms returns 0
T3F68 000:935.125 JLINK_WriteReg(R12, 0x00000000)
T3F68 000:935.129 - 0.004ms returns 0
T3F68 000:935.135 JLINK_WriteReg(R13 (SP), 0x1FFF1000)
T3F68 000:935.140 - 0.005ms returns 0
T3F68 000:935.145 JLINK_WriteReg(R14, 0x1FFF0001)
T3F68 000:935.150 - 0.004ms returns 0
T3F68 000:935.155 JLINK_WriteReg(R15 (PC), 0x1FFF0090)
T3F68 000:935.160 - 0.004ms returns 0
T3F68 000:935.165 JLINK_WriteReg(XPSR, 0x01000000)
T3F68 000:935.170 - 0.004ms returns 0
T3F68 000:935.175 JLINK_WriteReg(MSP, 0x1FFF1000)
T3F68 000:935.180 - 0.004ms returns 0
T3F68 000:935.185 JLINK_WriteReg(PSP, 0x1FFF1000)
T3F68 000:935.190 - 0.004ms returns 0
T3F68 000:935.195 JLINK_WriteReg(CFBP, 0x00000000)
T3F68 000:935.200 - 0.004ms returns 0
T3F68 000:935.206 JLINK_SetBPEx(Addr = 0x1FFF0000, Type = 0xFFFFFFF2)
T3F68 000:935.212 - 0.006ms returns 0x00000004
T3F68 000:935.218 JLINK_Go()
T3F68 000:935.228   CPU_WriteMem(4 bytes @ 0xE0002000)
T3F68 000:935.589   CPU_ReadMem(4 bytes @ 0xE0001000)
T3F68 000:937.825 - 2.606ms 
T3F68 000:937.840 JLINK_IsHalted()
T3F68 000:940.069 - 2.228ms returns TRUE
T3F68 000:940.085 JLINK_ReadReg(R15 (PC))
T3F68 000:940.100 - 0.014ms returns 0x1FFF0000
T3F68 000:940.106 JLINK_ClrBPEx(BPHandle = 0x00000004)
T3F68 000:940.112 - 0.005ms returns 0x00
T3F68 000:940.117 JLINK_ReadReg(R0)
T3F68 000:940.122 - 0.004ms returns 0x00000001
T3F68 000:940.127 JLINK_HasError()
T3F68 000:940.133 JLINK_WriteReg(R0, 0x00000800)
T3F68 000:940.138 - 0.005ms returns 0
T3F68 000:940.144 JLINK_WriteReg(R1, 0x00000800)
T3F68 000:940.148 - 0.004ms returns 0
T3F68 000:940.154 JLINK_WriteReg(R2, 0x000000FF)
T3F68 000:940.158 - 0.004ms returns 0
T3F68 000:940.163 JLINK_WriteReg(R3, 0x00000000)
T3F68 000:940.167 - 0.004ms returns 0
T3F68 000:940.173 JLINK_WriteReg(R4, 0x00000000)
T3F68 000:940.177 - 0.004ms returns 0
T3F68 000:940.182 JLINK_WriteReg(R5, 0x00000000)
T3F68 000:940.187 - 0.004ms returns 0
T3F68 000:940.192 JLINK_WriteReg(R6, 0x00000000)
T3F68 000:940.196 - 0.004ms returns 0
T3F68 000:940.202 JLINK_WriteReg(R7, 0x00000000)
T3F68 000:940.206 - 0.004ms returns 0
T3F68 000:940.211 JLINK_WriteReg(R8, 0x00000000)
T3F68 000:940.215 - 0.004ms returns 0
T3F68 000:940.221 JLINK_WriteReg(R9, 0x1FFF0344)
T3F68 000:940.225 - 0.004ms returns 0
T3F68 000:940.230 JLINK_WriteReg(R10, 0x00000000)
T3F68 000:940.235 - 0.004ms returns 0
T3F68 000:940.240 JLINK_WriteReg(R11, 0x00000000)
T3F68 000:940.244 - 0.004ms returns 0
T3F68 000:940.249 JLINK_WriteReg(R12, 0x00000000)
T3F68 000:940.254 - 0.004ms returns 0
T3F68 000:940.259 JLINK_WriteReg(R13 (SP), 0x1FFF1000)
T3F68 000:940.264 - 0.004ms returns 0
T3F68 000:940.269 JLINK_WriteReg(R14, 0x1FFF0001)
T3F68 000:940.273 - 0.004ms returns 0
T3F68 000:940.279 JLINK_WriteReg(R15 (PC), 0x1FFF00C4)
T3F68 000:940.283 - 0.004ms returns 0
T3F68 000:940.288 JLINK_WriteReg(XPSR, 0x01000000)
T3F68 000:940.293 - 0.004ms returns 0
T3F68 000:940.298 JLINK_WriteReg(MSP, 0x1FFF1000)
T3F68 000:940.302 - 0.004ms returns 0
T3F68 000:940.308 JLINK_WriteReg(PSP, 0x1FFF1000)
T3F68 000:940.312 - 0.004ms returns 0
T3F68 000:940.317 JLINK_WriteReg(CFBP, 0x00000000)
T3F68 000:940.322 - 0.004ms returns 0
T3F68 000:940.327 JLINK_SetBPEx(Addr = 0x1FFF0000, Type = 0xFFFFFFF2)
T3F68 000:940.332 - 0.005ms returns 0x00000005
T3F68 000:940.338 JLINK_Go()
T3F68 000:940.346   CPU_WriteMem(4 bytes @ 0xE0002000)
T3F68 000:940.775   CPU_ReadMem(4 bytes @ 0xE0001000)
T3F68 000:942.929 - 2.584ms 
T3F68 000:942.964 JLINK_IsHalted()
T3F68 000:943.405 - 0.440ms returns FALSE
T3F68 000:943.420 JLINK_HasError()
T3F68 000:944.656 JLINK_IsHalted()
T3F68 000:946.747 - 2.089ms returns TRUE
T3F68 000:946.762 JLINK_ReadReg(R15 (PC))
T3F68 000:946.770 - 0.007ms returns 0x1FFF0000
T3F68 000:946.776 JLINK_ClrBPEx(BPHandle = 0x00000005)
T3F68 000:946.781 - 0.005ms returns 0x00
T3F68 000:946.790 JLINK_ReadReg(R0)
T3F68 000:946.794 - 0.004ms returns 0x00000000
T3F68 000:947.596 JLINK_HasError()
T3F68 000:947.611 JLINK_WriteReg(R0, 0x00001000)
T3F68 000:947.618 - 0.006ms returns 0
T3F68 000:947.623 JLINK_WriteReg(R1, 0x00000800)
T3F68 000:947.628 - 0.004ms returns 0
T3F68 000:947.634 JLINK_WriteReg(R2, 0x000000FF)
T3F68 000:947.638 - 0.004ms returns 0
T3F68 000:947.643 JLINK_WriteReg(R3, 0x00000000)
T3F68 000:947.648 - 0.004ms returns 0
T3F68 000:947.653 JLINK_WriteReg(R4, 0x00000000)
T3F68 000:947.657 - 0.004ms returns 0
T3F68 000:947.662 JLINK_WriteReg(R5, 0x00000000)
T3F68 000:947.667 - 0.004ms returns 0
T3F68 000:947.672 JLINK_WriteReg(R6, 0x00000000)
T3F68 000:947.677 - 0.005ms returns 0
T3F68 000:947.682 JLINK_WriteReg(R7, 0x00000000)
T3F68 000:947.687 - 0.004ms returns 0
T3F68 000:947.693 JLINK_WriteReg(R8, 0x00000000)
T3F68 000:947.697 - 0.004ms returns 0
T3F68 000:947.702 JLINK_WriteReg(R9, 0x1FFF0344)
T3F68 000:947.707 - 0.004ms returns 0
T3F68 000:947.713 JLINK_WriteReg(R10, 0x00000000)
T3F68 000:947.719 - 0.005ms returns 0
T3F68 000:947.725 JLINK_WriteReg(R11, 0x00000000)
T3F68 000:947.731 - 0.005ms returns 0
T3F68 000:947.737 JLINK_WriteReg(R12, 0x00000000)
T3F68 000:947.742 - 0.005ms returns 0
T3F68 000:947.748 JLINK_WriteReg(R13 (SP), 0x1FFF1000)
T3F68 000:947.754 - 0.006ms returns 0
T3F68 000:947.761 JLINK_WriteReg(R14, 0x1FFF0001)
T3F68 000:947.767 - 0.005ms returns 0
T3F68 000:947.773 JLINK_WriteReg(R15 (PC), 0x1FFF0090)
T3F68 000:947.779 - 0.005ms returns 0
T3F68 000:947.785 JLINK_WriteReg(XPSR, 0x01000000)
T3F68 000:947.791 - 0.005ms returns 0
T3F68 000:947.797 JLINK_WriteReg(MSP, 0x1FFF1000)
T3F68 000:947.803 - 0.005ms returns 0
T3F68 000:947.809 JLINK_WriteReg(PSP, 0x1FFF1000)
T3F68 000:947.814 - 0.005ms returns 0
T3F68 000:947.820 JLINK_WriteReg(CFBP, 0x00000000)
T3F68 000:947.826 - 0.005ms returns 0
T3F68 000:947.833 JLINK_SetBPEx(Addr = 0x1FFF0000, Type = 0xFFFFFFF2)
T3F68 000:947.850 - 0.018ms returns 0x00000006
T3F68 000:947.857 JLINK_Go()
T3F68 000:947.869   CPU_WriteMem(4 bytes @ 0xE0002000)
T3F68 000:948.346   CPU_ReadMem(4 bytes @ 0xE0001000)
T3F68 000:950.630 - 2.771ms 
T3F68 000:950.648 JLINK_IsHalted()
T3F68 000:952.736 - 2.087ms returns TRUE
T3F68 000:952.751 JLINK_ReadReg(R15 (PC))
T3F68 000:952.758 - 0.007ms returns 0x1FFF0000
T3F68 000:952.764 JLINK_ClrBPEx(BPHandle = 0x00000006)
T3F68 000:952.770 - 0.005ms returns 0x00
T3F68 000:952.776 JLINK_ReadReg(R0)
T3F68 000:952.781 - 0.004ms returns 0x00000001
T3F68 000:952.787 JLINK_HasError()
T3F68 000:952.793 JLINK_WriteReg(R0, 0x00001000)
T3F68 000:952.799 - 0.005ms returns 0
T3F68 000:952.804 JLINK_WriteReg(R1, 0x00000800)
T3F68 000:952.809 - 0.004ms returns 0
T3F68 000:952.814 JLINK_WriteReg(R2, 0x000000FF)
T3F68 000:952.819 - 0.004ms returns 0
T3F68 000:952.824 JLINK_WriteReg(R3, 0x00000000)
T3F68 000:952.829 - 0.004ms returns 0
T3F68 000:952.834 JLINK_WriteReg(R4, 0x00000000)
T3F68 000:952.838 - 0.004ms returns 0
T3F68 000:952.844 JLINK_WriteReg(R5, 0x00000000)
T3F68 000:952.848 - 0.004ms returns 0
T3F68 000:952.854 JLINK_WriteReg(R6, 0x00000000)
T3F68 000:952.858 - 0.004ms returns 0
T3F68 000:952.864 JLINK_WriteReg(R7, 0x00000000)
T3F68 000:952.868 - 0.004ms returns 0
T3F68 000:952.874 JLINK_WriteReg(R8, 0x00000000)
T3F68 000:952.878 - 0.004ms returns 0
T3F68 000:952.883 JLINK_WriteReg(R9, 0x1FFF0344)
T3F68 000:952.888 - 0.004ms returns 0
T3F68 000:952.893 JLINK_WriteReg(R10, 0x00000000)
T3F68 000:952.898 - 0.004ms returns 0
T3F68 000:952.903 JLINK_WriteReg(R11, 0x00000000)
T3F68 000:952.910 - 0.006ms returns 0
T3F68 000:952.918 JLINK_WriteReg(R12, 0x00000000)
T3F68 000:952.922 - 0.004ms returns 0
T3F68 000:952.927 JLINK_WriteReg(R13 (SP), 0x1FFF1000)
T3F68 000:952.932 - 0.005ms returns 0
T3F68 000:952.938 JLINK_WriteReg(R14, 0x1FFF0001)
T3F68 000:952.942 - 0.004ms returns 0
T3F68 000:952.948 JLINK_WriteReg(R15 (PC), 0x1FFF00C4)
T3F68 000:952.952 - 0.004ms returns 0
T3F68 000:952.958 JLINK_WriteReg(XPSR, 0x01000000)
T3F68 000:952.962 - 0.004ms returns 0
T3F68 000:952.968 JLINK_WriteReg(MSP, 0x1FFF1000)
T3F68 000:952.972 - 0.004ms returns 0
T3F68 000:952.978 JLINK_WriteReg(PSP, 0x1FFF1000)
T3F68 000:952.982 - 0.004ms returns 0
T3F68 000:952.987 JLINK_WriteReg(CFBP, 0x00000000)
T3F68 000:952.992 - 0.004ms returns 0
T3F68 000:952.998 JLINK_SetBPEx(Addr = 0x1FFF0000, Type = 0xFFFFFFF2)
T3F68 000:953.003 - 0.005ms returns 0x00000007
T3F68 000:953.009 JLINK_Go()
T3F68 000:953.017   CPU_WriteMem(4 bytes @ 0xE0002000)
T3F68 000:953.431   CPU_ReadMem(4 bytes @ 0xE0001000)
T3F68 000:955.188 - 2.177ms 
T3F68 000:955.195 JLINK_IsHalted()
T3F68 000:955.425 - 0.229ms returns FALSE
T3F68 000:955.432 JLINK_HasError()
T3F68 000:956.649 JLINK_IsHalted()
T3F68 000:958.476 - 1.827ms returns TRUE
T3F68 000:958.491 JLINK_ReadReg(R15 (PC))
T3F68 000:958.499 - 0.007ms returns 0x1FFF0000
T3F68 000:958.505 JLINK_ClrBPEx(BPHandle = 0x00000007)
T3F68 000:958.510 - 0.005ms returns 0x00
T3F68 000:958.516 JLINK_ReadReg(R0)
T3F68 000:958.520 - 0.004ms returns 0x00000000
T3F68 000:959.371 JLINK_HasError()
T3F68 000:959.387 JLINK_WriteReg(R0, 0x00001800)
T3F68 000:959.394 - 0.006ms returns 0
T3F68 000:959.400 JLINK_WriteReg(R1, 0x00000800)
T3F68 000:959.405 - 0.004ms returns 0
T3F68 000:959.411 JLINK_WriteReg(R2, 0x000000FF)
T3F68 000:959.416 - 0.005ms returns 0
T3F68 000:959.422 JLINK_WriteReg(R3, 0x00000000)
T3F68 000:959.426 - 0.004ms returns 0
T3F68 000:959.432 JLINK_WriteReg(R4, 0x00000000)
T3F68 000:959.436 - 0.004ms returns 0
T3F68 000:959.442 JLINK_WriteReg(R5, 0x00000000)
T3F68 000:959.447 - 0.004ms returns 0
T3F68 000:959.452 JLINK_WriteReg(R6, 0x00000000)
T3F68 000:959.457 - 0.004ms returns 0
T3F68 000:959.463 JLINK_WriteReg(R7, 0x00000000)
T3F68 000:959.467 - 0.004ms returns 0
T3F68 000:959.473 JLINK_WriteReg(R8, 0x00000000)
T3F68 000:959.478 - 0.004ms returns 0
T3F68 000:959.483 JLINK_WriteReg(R9, 0x1FFF0344)
T3F68 000:959.488 - 0.004ms returns 0
T3F68 000:959.493 JLINK_WriteReg(R10, 0x00000000)
T3F68 000:959.498 - 0.004ms returns 0
T3F68 000:959.504 JLINK_WriteReg(R11, 0x00000000)
T3F68 000:959.508 - 0.004ms returns 0
T3F68 000:959.514 JLINK_WriteReg(R12, 0x00000000)
T3F68 000:959.518 - 0.004ms returns 0
T3F68 000:959.524 JLINK_WriteReg(R13 (SP), 0x1FFF1000)
T3F68 000:959.529 - 0.005ms returns 0
T3F68 000:959.535 JLINK_WriteReg(R14, 0x1FFF0001)
T3F68 000:959.539 - 0.004ms returns 0
T3F68 000:959.545 JLINK_WriteReg(R15 (PC), 0x1FFF0090)
T3F68 000:959.550 - 0.004ms returns 0
T3F68 000:959.556 JLINK_WriteReg(XPSR, 0x01000000)
T3F68 000:959.560 - 0.004ms returns 0
T3F68 000:959.566 JLINK_WriteReg(MSP, 0x1FFF1000)
T3F68 000:959.570 - 0.004ms returns 0
T3F68 000:959.576 JLINK_WriteReg(PSP, 0x1FFF1000)
T3F68 000:959.580 - 0.004ms returns 0
T3F68 000:959.586 JLINK_WriteReg(CFBP, 0x00000000)
T3F68 000:959.591 - 0.004ms returns 0
T3F68 000:959.597 JLINK_SetBPEx(Addr = 0x1FFF0000, Type = 0xFFFFFFF2)
T3F68 000:959.603 - 0.006ms returns 0x00000008
T3F68 000:959.609 JLINK_Go()
T3F68 000:959.618   CPU_WriteMem(4 bytes @ 0xE0002000)
T3F68 000:959.920   CPU_ReadMem(4 bytes @ 0xE0001000)
T3F68 000:961.999 - 2.389ms 
T3F68 000:962.013 JLINK_IsHalted()
T3F68 000:963.774 - 1.759ms returns TRUE
T3F68 000:963.791 JLINK_ReadReg(R15 (PC))
T3F68 000:963.799 - 0.007ms returns 0x1FFF0000
T3F68 000:963.804 JLINK_ClrBPEx(BPHandle = 0x00000008)
T3F68 000:963.810 - 0.005ms returns 0x00
T3F68 000:963.815 JLINK_ReadReg(R0)
T3F68 000:963.820 - 0.004ms returns 0x00000001
T3F68 000:963.825 JLINK_HasError()
T3F68 000:963.832 JLINK_WriteReg(R0, 0x00001800)
T3F68 000:963.877 - 0.046ms returns 0
T3F68 000:963.885 JLINK_WriteReg(R1, 0x00000800)
T3F68 000:963.890 - 0.004ms returns 0
T3F68 000:963.895 JLINK_WriteReg(R2, 0x000000FF)
T3F68 000:963.900 - 0.004ms returns 0
T3F68 000:963.905 JLINK_WriteReg(R3, 0x00000000)
T3F68 000:963.909 - 0.004ms returns 0
T3F68 000:963.914 JLINK_WriteReg(R4, 0x00000000)
T3F68 000:963.919 - 0.004ms returns 0
T3F68 000:963.924 JLINK_WriteReg(R5, 0x00000000)
T3F68 000:963.928 - 0.004ms returns 0
T3F68 000:963.934 JLINK_WriteReg(R6, 0x00000000)
T3F68 000:963.938 - 0.004ms returns 0
T3F68 000:963.943 JLINK_WriteReg(R7, 0x00000000)
T3F68 000:963.947 - 0.004ms returns 0
T3F68 000:963.953 JLINK_WriteReg(R8, 0x00000000)
T3F68 000:963.957 - 0.004ms returns 0
T3F68 000:963.962 JLINK_WriteReg(R9, 0x1FFF0344)
T3F68 000:963.967 - 0.004ms returns 0
T3F68 000:963.972 JLINK_WriteReg(R10, 0x00000000)
T3F68 000:963.976 - 0.004ms returns 0
T3F68 000:963.982 JLINK_WriteReg(R11, 0x00000000)
T3F68 000:963.986 - 0.004ms returns 0
T3F68 000:963.991 JLINK_WriteReg(R12, 0x00000000)
T3F68 000:963.996 - 0.004ms returns 0
T3F68 000:964.001 JLINK_WriteReg(R13 (SP), 0x1FFF1000)
T3F68 000:964.006 - 0.004ms returns 0
T3F68 000:964.011 JLINK_WriteReg(R14, 0x1FFF0001)
T3F68 000:964.015 - 0.004ms returns 0
T3F68 000:964.020 JLINK_WriteReg(R15 (PC), 0x1FFF00C4)
T3F68 000:964.025 - 0.004ms returns 0
T3F68 000:964.030 JLINK_WriteReg(XPSR, 0x01000000)
T3F68 000:964.034 - 0.004ms returns 0
T3F68 000:964.040 JLINK_WriteReg(MSP, 0x1FFF1000)
T3F68 000:964.044 - 0.004ms returns 0
T3F68 000:964.049 JLINK_WriteReg(PSP, 0x1FFF1000)
T3F68 000:964.054 - 0.004ms returns 0
T3F68 000:964.059 JLINK_WriteReg(CFBP, 0x00000000)
T3F68 000:964.063 - 0.004ms returns 0
T3F68 000:964.069 JLINK_SetBPEx(Addr = 0x1FFF0000, Type = 0xFFFFFFF2)
T3F68 000:964.074 - 0.005ms returns 0x00000009
T3F68 000:964.080 JLINK_Go()
T3F68 000:964.087   CPU_WriteMem(4 bytes @ 0xE0002000)
T3F68 000:964.400   CPU_ReadMem(4 bytes @ 0xE0001000)
T3F68 000:966.371 - 2.290ms 
T3F68 000:966.388 JLINK_IsHalted()
T3F68 000:966.616 - 0.227ms returns FALSE
T3F68 000:966.623 JLINK_HasError()
T3F68 000:968.163 JLINK_IsHalted()
T3F68 000:970.024 - 1.862ms returns TRUE
T3F68 000:970.039 JLINK_ReadReg(R15 (PC))
T3F68 000:970.046 - 0.007ms returns 0x1FFF0000
T3F68 000:970.053 JLINK_ClrBPEx(BPHandle = 0x00000009)
T3F68 000:970.058 - 0.005ms returns 0x00
T3F68 000:970.064 JLINK_ReadReg(R0)
T3F68 000:970.068 - 0.004ms returns 0x00000000
T3F68 000:970.727 JLINK_HasError()
T3F68 000:970.741 JLINK_WriteReg(R0, 0x00002000)
T3F68 000:970.748 - 0.006ms returns 0
T3F68 000:970.754 JLINK_WriteReg(R1, 0x00000800)
T3F68 000:970.758 - 0.004ms returns 0
T3F68 000:970.764 JLINK_WriteReg(R2, 0x000000FF)
T3F68 000:970.769 - 0.004ms returns 0
T3F68 000:970.774 JLINK_WriteReg(R3, 0x00000000)
T3F68 000:970.779 - 0.004ms returns 0
T3F68 000:970.784 JLINK_WriteReg(R4, 0x00000000)
T3F68 000:970.789 - 0.004ms returns 0
T3F68 000:970.794 JLINK_WriteReg(R5, 0x00000000)
T3F68 000:970.799 - 0.004ms returns 0
T3F68 000:970.804 JLINK_WriteReg(R6, 0x00000000)
T3F68 000:970.809 - 0.004ms returns 0
T3F68 000:970.814 JLINK_WriteReg(R7, 0x00000000)
T3F68 000:970.818 - 0.004ms returns 0
T3F68 000:970.824 JLINK_WriteReg(R8, 0x00000000)
T3F68 000:970.828 - 0.004ms returns 0
T3F68 000:970.834 JLINK_WriteReg(R9, 0x1FFF0344)
T3F68 000:970.838 - 0.004ms returns 0
T3F68 000:970.844 JLINK_WriteReg(R10, 0x00000000)
T3F68 000:970.848 - 0.004ms returns 0
T3F68 000:970.853 JLINK_WriteReg(R11, 0x00000000)
T3F68 000:970.858 - 0.004ms returns 0
T3F68 000:970.863 JLINK_WriteReg(R12, 0x00000000)
T3F68 000:970.868 - 0.004ms returns 0
T3F68 000:970.873 JLINK_WriteReg(R13 (SP), 0x1FFF1000)
T3F68 000:970.878 - 0.005ms returns 0
T3F68 000:970.884 JLINK_WriteReg(R14, 0x1FFF0001)
T3F68 000:970.888 - 0.004ms returns 0
T3F68 000:970.894 JLINK_WriteReg(R15 (PC), 0x1FFF0090)
T3F68 000:970.898 - 0.004ms returns 0
T3F68 000:970.904 JLINK_WriteReg(XPSR, 0x01000000)
T3F68 000:970.908 - 0.004ms returns 0
T3F68 000:970.914 JLINK_WriteReg(MSP, 0x1FFF1000)
T3F68 000:970.923 - 0.009ms returns 0
T3F68 000:970.929 JLINK_WriteReg(PSP, 0x1FFF1000)
T3F68 000:970.933 - 0.004ms returns 0
T3F68 000:970.938 JLINK_WriteReg(CFBP, 0x00000000)
T3F68 000:970.943 - 0.004ms returns 0
T3F68 000:970.949 JLINK_SetBPEx(Addr = 0x1FFF0000, Type = 0xFFFFFFF2)
T3F68 000:970.955 - 0.006ms returns 0x0000000A
T3F68 000:970.960 JLINK_Go()
T3F68 000:970.969   CPU_WriteMem(4 bytes @ 0xE0002000)
T3F68 000:971.353   CPU_ReadMem(4 bytes @ 0xE0001000)
T3F68 000:973.432 - 2.471ms 
T3F68 000:973.447 JLINK_IsHalted()
T3F68 000:975.280 - 1.832ms returns TRUE
T3F68 000:975.295 JLINK_ReadReg(R15 (PC))
T3F68 000:975.303 - 0.007ms returns 0x1FFF0000
T3F68 000:975.309 JLINK_ClrBPEx(BPHandle = 0x0000000A)
T3F68 000:975.314 - 0.005ms returns 0x00
T3F68 000:975.320 JLINK_ReadReg(R0)
T3F68 000:975.325 - 0.004ms returns 0x00000001
T3F68 000:975.331 JLINK_HasError()
T3F68 000:975.337 JLINK_WriteReg(R0, 0x00002000)
T3F68 000:975.342 - 0.005ms returns 0
T3F68 000:975.348 JLINK_WriteReg(R1, 0x00000800)
T3F68 000:975.352 - 0.004ms returns 0
T3F68 000:975.358 JLINK_WriteReg(R2, 0x000000FF)
T3F68 000:975.362 - 0.004ms returns 0
T3F68 000:975.368 JLINK_WriteReg(R3, 0x00000000)
T3F68 000:975.372 - 0.004ms returns 0
T3F68 000:975.378 JLINK_WriteReg(R4, 0x00000000)
T3F68 000:975.382 - 0.004ms returns 0
T3F68 000:975.388 JLINK_WriteReg(R5, 0x00000000)
T3F68 000:975.392 - 0.004ms returns 0
T3F68 000:975.397 JLINK_WriteReg(R6, 0x00000000)
T3F68 000:975.402 - 0.004ms returns 0
T3F68 000:975.407 JLINK_WriteReg(R7, 0x00000000)
T3F68 000:975.412 - 0.004ms returns 0
T3F68 000:975.417 JLINK_WriteReg(R8, 0x00000000)
T3F68 000:975.422 - 0.004ms returns 0
T3F68 000:975.427 JLINK_WriteReg(R9, 0x1FFF0344)
T3F68 000:975.431 - 0.004ms returns 0
T3F68 000:975.437 JLINK_WriteReg(R10, 0x00000000)
T3F68 000:975.441 - 0.004ms returns 0
T3F68 000:975.447 JLINK_WriteReg(R11, 0x00000000)
T3F68 000:975.451 - 0.004ms returns 0
T3F68 000:975.457 JLINK_WriteReg(R12, 0x00000000)
T3F68 000:975.461 - 0.004ms returns 0
T3F68 000:975.467 JLINK_WriteReg(R13 (SP), 0x1FFF1000)
T3F68 000:975.471 - 0.004ms returns 0
T3F68 000:975.477 JLINK_WriteReg(R14, 0x1FFF0001)
T3F68 000:975.481 - 0.004ms returns 0
T3F68 000:975.487 JLINK_WriteReg(R15 (PC), 0x1FFF00C4)
T3F68 000:975.491 - 0.004ms returns 0
T3F68 000:975.497 JLINK_WriteReg(XPSR, 0x01000000)
T3F68 000:975.501 - 0.004ms returns 0
T3F68 000:975.507 JLINK_WriteReg(MSP, 0x1FFF1000)
T3F68 000:975.511 - 0.004ms returns 0
T3F68 000:975.517 JLINK_WriteReg(PSP, 0x1FFF1000)
T3F68 000:975.521 - 0.004ms returns 0
T3F68 000:975.527 JLINK_WriteReg(CFBP, 0x00000000)
T3F68 000:975.531 - 0.004ms returns 0
T3F68 000:975.537 JLINK_SetBPEx(Addr = 0x1FFF0000, Type = 0xFFFFFFF2)
T3F68 000:975.542 - 0.005ms returns 0x0000000B
T3F68 000:975.548 JLINK_Go()
T3F68 000:975.556   CPU_WriteMem(4 bytes @ 0xE0002000)
T3F68 000:975.963   CPU_ReadMem(4 bytes @ 0xE0001000)
T3F68 000:978.009 - 2.461ms 
T3F68 000:978.045 JLINK_IsHalted()
T3F68 000:978.313 - 0.267ms returns FALSE
T3F68 000:978.327 JLINK_HasError()
T3F68 000:979.740 JLINK_IsHalted()
T3F68 000:981.565 - 1.824ms returns TRUE
T3F68 000:981.583 JLINK_ReadReg(R15 (PC))
T3F68 000:981.590 - 0.006ms returns 0x1FFF0000
T3F68 000:981.596 JLINK_ClrBPEx(BPHandle = 0x0000000B)
T3F68 000:981.601 - 0.005ms returns 0x00
T3F68 000:981.607 JLINK_ReadReg(R0)
T3F68 000:981.611 - 0.004ms returns 0x00000000
T3F68 000:982.224 JLINK_HasError()
T3F68 000:982.239 JLINK_WriteReg(R0, 0x00002800)
T3F68 000:982.246 - 0.007ms returns 0
T3F68 000:982.252 JLINK_WriteReg(R1, 0x00000800)
T3F68 000:982.257 - 0.005ms returns 0
T3F68 000:982.263 JLINK_WriteReg(R2, 0x000000FF)
T3F68 000:982.267 - 0.004ms returns 0
T3F68 000:982.273 JLINK_WriteReg(R3, 0x00000000)
T3F68 000:982.277 - 0.004ms returns 0
T3F68 000:982.283 JLINK_WriteReg(R4, 0x00000000)
T3F68 000:982.287 - 0.004ms returns 0
T3F68 000:982.292 JLINK_WriteReg(R5, 0x00000000)
T3F68 000:982.297 - 0.004ms returns 0
T3F68 000:982.302 JLINK_WriteReg(R6, 0x00000000)
T3F68 000:982.309 - 0.006ms returns 0
T3F68 000:982.316 JLINK_WriteReg(R7, 0x00000000)
T3F68 000:982.321 - 0.004ms returns 0
T3F68 000:982.326 JLINK_WriteReg(R8, 0x00000000)
T3F68 000:982.331 - 0.004ms returns 0
T3F68 000:982.336 JLINK_WriteReg(R9, 0x1FFF0344)
T3F68 000:982.341 - 0.004ms returns 0
T3F68 000:982.346 JLINK_WriteReg(R10, 0x00000000)
T3F68 000:982.351 - 0.004ms returns 0
T3F68 000:982.356 JLINK_WriteReg(R11, 0x00000000)
T3F68 000:982.360 - 0.004ms returns 0
T3F68 000:982.366 JLINK_WriteReg(R12, 0x00000000)
T3F68 000:982.370 - 0.004ms returns 0
T3F68 000:982.376 JLINK_WriteReg(R13 (SP), 0x1FFF1000)
T3F68 000:982.381 - 0.005ms returns 0
T3F68 000:982.386 JLINK_WriteReg(R14, 0x1FFF0001)
T3F68 000:982.391 - 0.004ms returns 0
T3F68 000:982.396 JLINK_WriteReg(R15 (PC), 0x1FFF0090)
T3F68 000:982.401 - 0.004ms returns 0
T3F68 000:982.406 JLINK_WriteReg(XPSR, 0x01000000)
T3F68 000:982.410 - 0.004ms returns 0
T3F68 000:982.416 JLINK_WriteReg(MSP, 0x1FFF1000)
T3F68 000:982.420 - 0.004ms returns 0
T3F68 000:982.426 JLINK_WriteReg(PSP, 0x1FFF1000)
T3F68 000:982.430 - 0.004ms returns 0
T3F68 000:982.436 JLINK_WriteReg(CFBP, 0x00000000)
T3F68 000:982.440 - 0.004ms returns 0
T3F68 000:982.446 JLINK_SetBPEx(Addr = 0x1FFF0000, Type = 0xFFFFFFF2)
T3F68 000:982.452 - 0.006ms returns 0x0000000C
T3F68 000:982.458 JLINK_Go()
T3F68 000:982.467   CPU_WriteMem(4 bytes @ 0xE0002000)
T3F68 000:982.954   CPU_ReadMem(4 bytes @ 0xE0001000)
T3F68 000:985.222 - 2.764ms 
T3F68 000:985.238 JLINK_IsHalted()
T3F68 000:987.228 - 1.989ms returns TRUE
T3F68 000:987.244 JLINK_ReadReg(R15 (PC))
T3F68 000:987.251 - 0.006ms returns 0x1FFF0000
T3F68 000:987.257 JLINK_ClrBPEx(BPHandle = 0x0000000C)
T3F68 000:987.262 - 0.005ms returns 0x00
T3F68 000:987.268 JLINK_ReadReg(R0)
T3F68 000:987.273 - 0.004ms returns 0x00000001
T3F68 000:987.279 JLINK_HasError()
T3F68 000:987.285 JLINK_WriteReg(R0, 0x00002800)
T3F68 000:987.290 - 0.005ms returns 0
T3F68 000:987.297 JLINK_WriteReg(R1, 0x00000800)
T3F68 000:987.301 - 0.005ms returns 0
T3F68 000:987.307 JLINK_WriteReg(R2, 0x000000FF)
T3F68 000:987.311 - 0.004ms returns 0
T3F68 000:987.317 JLINK_WriteReg(R3, 0x00000000)
T3F68 000:987.321 - 0.004ms returns 0
T3F68 000:987.327 JLINK_WriteReg(R4, 0x00000000)
T3F68 000:987.331 - 0.004ms returns 0
T3F68 000:987.337 JLINK_WriteReg(R5, 0x00000000)
T3F68 000:987.341 - 0.004ms returns 0
T3F68 000:987.347 JLINK_WriteReg(R6, 0x00000000)
T3F68 000:987.351 - 0.004ms returns 0
T3F68 000:987.357 JLINK_WriteReg(R7, 0x00000000)
T3F68 000:987.361 - 0.004ms returns 0
T3F68 000:987.367 JLINK_WriteReg(R8, 0x00000000)
T3F68 000:987.371 - 0.004ms returns 0
T3F68 000:987.377 JLINK_WriteReg(R9, 0x1FFF0344)
T3F68 000:987.381 - 0.004ms returns 0
T3F68 000:987.387 JLINK_WriteReg(R10, 0x00000000)
T3F68 000:987.391 - 0.004ms returns 0
T3F68 000:987.397 JLINK_WriteReg(R11, 0x00000000)
T3F68 000:987.403 - 0.006ms returns 0
T3F68 000:987.410 JLINK_WriteReg(R12, 0x00000000)
T3F68 000:987.415 - 0.004ms returns 0
T3F68 000:987.420 JLINK_WriteReg(R13 (SP), 0x1FFF1000)
T3F68 000:987.425 - 0.005ms returns 0
T3F68 000:987.431 JLINK_WriteReg(R14, 0x1FFF0001)
T3F68 000:987.435 - 0.004ms returns 0
T3F68 000:987.441 JLINK_WriteReg(R15 (PC), 0x1FFF00C4)
T3F68 000:987.445 - 0.004ms returns 0
T3F68 000:987.451 JLINK_WriteReg(XPSR, 0x01000000)
T3F68 000:987.455 - 0.004ms returns 0
T3F68 000:987.461 JLINK_WriteReg(MSP, 0x1FFF1000)
T3F68 000:987.465 - 0.004ms returns 0
T3F68 000:987.471 JLINK_WriteReg(PSP, 0x1FFF1000)
T3F68 000:987.475 - 0.004ms returns 0
T3F68 000:987.480 JLINK_WriteReg(CFBP, 0x00000000)
T3F68 000:987.485 - 0.004ms returns 0
T3F68 000:987.491 JLINK_SetBPEx(Addr = 0x1FFF0000, Type = 0xFFFFFFF2)
T3F68 000:987.496 - 0.005ms returns 0x0000000D
T3F68 000:987.503 JLINK_Go()
T3F68 000:987.512   CPU_WriteMem(4 bytes @ 0xE0002000)
T3F68 000:987.902   CPU_ReadMem(4 bytes @ 0xE0001000)
T3F68 000:990.222 - 2.718ms 
T3F68 000:990.241 JLINK_IsHalted()
T3F68 000:990.660 - 0.417ms returns FALSE
T3F68 000:990.675 JLINK_HasError()
T3F68 000:992.803 JLINK_IsHalted()
T3F68 000:994.755 - 1.951ms returns TRUE
T3F68 000:994.769 JLINK_ReadReg(R15 (PC))
T3F68 000:994.776 - 0.007ms returns 0x1FFF0000
T3F68 000:994.782 JLINK_ClrBPEx(BPHandle = 0x0000000D)
T3F68 000:994.788 - 0.005ms returns 0x00
T3F68 000:994.794 JLINK_ReadReg(R0)
T3F68 000:994.799 - 0.005ms returns 0x00000000
T3F68 000:995.415 JLINK_HasError()
T3F68 000:995.427 JLINK_WriteReg(R0, 0x00003000)
T3F68 000:995.434 - 0.006ms returns 0
T3F68 000:995.440 JLINK_WriteReg(R1, 0x00000800)
T3F68 000:995.445 - 0.004ms returns 0
T3F68 000:995.450 JLINK_WriteReg(R2, 0x000000FF)
T3F68 000:995.454 - 0.004ms returns 0
T3F68 000:995.460 JLINK_WriteReg(R3, 0x00000000)
T3F68 000:995.464 - 0.004ms returns 0
T3F68 000:995.469 JLINK_WriteReg(R4, 0x00000000)
T3F68 000:995.474 - 0.004ms returns 0
T3F68 000:995.479 JLINK_WriteReg(R5, 0x00000000)
T3F68 000:995.483 - 0.004ms returns 0
T3F68 000:995.489 JLINK_WriteReg(R6, 0x00000000)
T3F68 000:995.493 - 0.004ms returns 0
T3F68 000:995.498 JLINK_WriteReg(R7, 0x00000000)
T3F68 000:995.503 - 0.004ms returns 0
T3F68 000:995.508 JLINK_WriteReg(R8, 0x00000000)
T3F68 000:995.512 - 0.004ms returns 0
T3F68 000:995.518 JLINK_WriteReg(R9, 0x1FFF0344)
T3F68 000:995.522 - 0.004ms returns 0
T3F68 000:995.527 JLINK_WriteReg(R10, 0x00000000)
T3F68 000:995.532 - 0.004ms returns 0
T3F68 000:995.537 JLINK_WriteReg(R11, 0x00000000)
T3F68 000:995.541 - 0.004ms returns 0
T3F68 000:995.547 JLINK_WriteReg(R12, 0x00000000)
T3F68 000:995.551 - 0.004ms returns 0
T3F68 000:995.556 JLINK_WriteReg(R13 (SP), 0x1FFF1000)
T3F68 000:995.561 - 0.005ms returns 0
T3F68 000:995.566 JLINK_WriteReg(R14, 0x1FFF0001)
T3F68 000:995.571 - 0.004ms returns 0
T3F68 000:995.576 JLINK_WriteReg(R15 (PC), 0x1FFF0090)
T3F68 000:995.581 - 0.004ms returns 0
T3F68 000:995.586 JLINK_WriteReg(XPSR, 0x01000000)
T3F68 000:995.590 - 0.004ms returns 0
T3F68 000:995.596 JLINK_WriteReg(MSP, 0x1FFF1000)
T3F68 000:995.600 - 0.004ms returns 0
T3F68 000:995.606 JLINK_WriteReg(PSP, 0x1FFF1000)
T3F68 000:995.612 - 0.005ms returns 0
T3F68 000:995.618 JLINK_WriteReg(CFBP, 0x00000000)
T3F68 000:995.624 - 0.005ms returns 0
T3F68 000:995.631 JLINK_SetBPEx(Addr = 0x1FFF0000, Type = 0xFFFFFFF2)
T3F68 000:995.636 - 0.006ms returns 0x0000000E
T3F68 000:995.642 JLINK_Go()
T3F68 000:995.651   CPU_WriteMem(4 bytes @ 0xE0002000)
T3F68 000:996.011   CPU_ReadMem(4 bytes @ 0xE0001000)
T3F68 000:998.163 - 2.520ms 
T3F68 000:998.182 JLINK_IsHalted()
T3F68 001:000.239 - 2.056ms returns TRUE
T3F68 001:000.256 JLINK_ReadReg(R15 (PC))
T3F68 001:000.263 - 0.007ms returns 0x1FFF0000
T3F68 001:000.270 JLINK_ClrBPEx(BPHandle = 0x0000000E)
T3F68 001:000.275 - 0.005ms returns 0x00
T3F68 001:000.281 JLINK_ReadReg(R0)
T3F68 001:000.286 - 0.004ms returns 0x00000001
T3F68 001:000.292 JLINK_HasError()
T3F68 001:000.299 JLINK_WriteReg(R0, 0x00003000)
T3F68 001:000.304 - 0.005ms returns 0
T3F68 001:000.309 JLINK_WriteReg(R1, 0x00000800)
T3F68 001:000.314 - 0.004ms returns 0
T3F68 001:000.319 JLINK_WriteReg(R2, 0x000000FF)
T3F68 001:000.324 - 0.004ms returns 0
T3F68 001:000.329 JLINK_WriteReg(R3, 0x00000000)
T3F68 001:000.334 - 0.004ms returns 0
T3F68 001:000.339 JLINK_WriteReg(R4, 0x00000000)
T3F68 001:000.344 - 0.004ms returns 0
T3F68 001:000.349 JLINK_WriteReg(R5, 0x00000000)
T3F68 001:000.354 - 0.004ms returns 0
T3F68 001:000.359 JLINK_WriteReg(R6, 0x00000000)
T3F68 001:000.364 - 0.004ms returns 0
T3F68 001:000.369 JLINK_WriteReg(R7, 0x00000000)
T3F68 001:000.373 - 0.004ms returns 0
T3F68 001:000.379 JLINK_WriteReg(R8, 0x00000000)
T3F68 001:000.384 - 0.004ms returns 0
T3F68 001:000.389 JLINK_WriteReg(R9, 0x1FFF0344)
T3F68 001:000.393 - 0.004ms returns 0
T3F68 001:000.399 JLINK_WriteReg(R10, 0x00000000)
T3F68 001:000.403 - 0.004ms returns 0
T3F68 001:000.409 JLINK_WriteReg(R11, 0x00000000)
T3F68 001:000.413 - 0.004ms returns 0
T3F68 001:000.419 JLINK_WriteReg(R12, 0x00000000)
T3F68 001:000.423 - 0.004ms returns 0
T3F68 001:000.429 JLINK_WriteReg(R13 (SP), 0x1FFF1000)
T3F68 001:000.436 - 0.007ms returns 0
T3F68 001:000.444 JLINK_WriteReg(R14, 0x1FFF0001)
T3F68 001:000.448 - 0.004ms returns 0
T3F68 001:000.454 JLINK_WriteReg(R15 (PC), 0x1FFF00C4)
T3F68 001:000.458 - 0.004ms returns 0
T3F68 001:000.464 JLINK_WriteReg(XPSR, 0x01000000)
T3F68 001:000.468 - 0.004ms returns 0
T3F68 001:000.474 JLINK_WriteReg(MSP, 0x1FFF1000)
T3F68 001:000.478 - 0.004ms returns 0
T3F68 001:000.484 JLINK_WriteReg(PSP, 0x1FFF1000)
T3F68 001:000.488 - 0.004ms returns 0
T3F68 001:000.494 JLINK_WriteReg(CFBP, 0x00000000)
T3F68 001:000.498 - 0.004ms returns 0
T3F68 001:000.504 JLINK_SetBPEx(Addr = 0x1FFF0000, Type = 0xFFFFFFF2)
T3F68 001:000.510 - 0.005ms returns 0x0000000F
T3F68 001:000.515 JLINK_Go()
T3F68 001:000.524   CPU_WriteMem(4 bytes @ 0xE0002000)
T3F68 001:000.973   CPU_ReadMem(4 bytes @ 0xE0001000)
T3F68 001:003.341 - 2.825ms 
T3F68 001:003.356 JLINK_IsHalted()
T3F68 001:003.767 - 0.410ms returns FALSE
T3F68 001:003.782 JLINK_HasError()
T3F68 001:005.256 JLINK_IsHalted()
T3F68 001:007.403 - 2.145ms returns TRUE
T3F68 001:007.427 JLINK_ReadReg(R15 (PC))
T3F68 001:007.435 - 0.008ms returns 0x1FFF0000
T3F68 001:007.441 JLINK_ClrBPEx(BPHandle = 0x0000000F)
T3F68 001:007.446 - 0.005ms returns 0x00
T3F68 001:007.453 JLINK_ReadReg(R0)
T3F68 001:007.457 - 0.005ms returns 0x00000000
T3F68 001:008.041 JLINK_HasError()
T3F68 001:008.053 JLINK_WriteReg(R0, 0x00003800)
T3F68 001:008.059 - 0.006ms returns 0
T3F68 001:008.065 JLINK_WriteReg(R1, 0x00000800)
T3F68 001:008.070 - 0.004ms returns 0
T3F68 001:008.075 JLINK_WriteReg(R2, 0x000000FF)
T3F68 001:008.080 - 0.004ms returns 0
T3F68 001:008.085 JLINK_WriteReg(R3, 0x00000000)
T3F68 001:008.090 - 0.004ms returns 0
T3F68 001:008.095 JLINK_WriteReg(R4, 0x00000000)
T3F68 001:008.100 - 0.004ms returns 0
T3F68 001:008.105 JLINK_WriteReg(R5, 0x00000000)
T3F68 001:008.110 - 0.004ms returns 0
